!Keysight Technologies N9914A: A.09.19
!Date: Saturday, 20 October 2018 03:03:09
!TimeZone: (UTC+08:00) Kuala Lumpur, Singapore!Model: N9914A
!Serial: MY56072001
!GPS Latitude: 
!GPS Longitude: 
!GPS TimeStamp: 0001-01-01 00:00:00Z
!GPS Seconds Since Last Read: 0
!CHECKSUM:0679652002
!Correction: S11(ON U)
!S1P File: Measurement: S11:
# Hz S DB R 50
2000000000	-5.11743005398847	57.1766404193726
2022500000	-5.28434584074438	49.2534974372591
2045000000	-5.74231271437166	42.4980146809173
2067500000	-5.83467369090039	34.8405266297633
2090000000	-6.05560342584776	26.4625952977408
2112500000	-6.41030496958528	18.1968877339871
2135000000	-7.00635465686539	11.269712201371
2157500000	-6.99843495132496	2.95336272286067
2180000000	-7.35201829629403	-3.50185376573006
2202500000	-7.50065140055094	-13.3916236979808
2225000000	-7.6712064804888	-20.5805277427385
2247500000	-7.99588152343317	-31.1563131745368
2270000000	-8.25277702670746	-38.1448607122974
2292500000	-8.13302502918738	-47.8003210143225
2315000000	-8.40029512736564	-58.7214109958368
2337500000	-8.81679334491943	-66.4388476485719
2360000000	-8.85396254638629	-72.4370390602243
2382500000	-8.94562198496071	-82.5877351555414
2405000000	-8.81528873288116	-88.9404209824849
2427500000	-8.81791723198227	-96.7413739794827
2450000000	-8.43378237657749	-105.026760145846
2472500000	-8.72260706386033	-114.4874500287
2495000000	-8.55961659469997	-119.828406176778
2517500000	-8.77314432325291	-128.968200081876
2540000000	-9.03517129106296	-130.954290066385
2562500000	-8.1647854812271	-137.649403013259
2585000000	-7.98081528200781	-146.015875163854
2607500000	-7.93972008309543	-150.945329896443
2630000000	-7.61017342678218	-156.872027957464
2652500000	-7.65750884374007	-164.124868891659
2675000000	-7.64896002956646	-170.891814038914
2697500000	-7.84740329032005	-173.812284807259
2720000000	-7.59312782558011	179.486581110196
2742500000	-7.6327164668599	176.271298047977
2765000000	-7.72695164033865	171.389326564736
2787500000	-7.52294474272943	168.02641636024
2810000000	-7.41849067201374	163.832199122001
2832500000	-7.4416762842772	158.134253941293
2855000000	-7.14017331973109	153.247156450419
2877500000	-7.36500831786349	148.766527190772
2900000000	-7.38419524249626	145.419764402513
2922500000	-7.45500536427467	140.516776954411
2945000000	-7.12983273866697	137.264048580792
2967500000	-7.18097458234868	131.514010432363
2990000000	-7.38419153789649	126.384872649655
3012500000	-7.65572148645216	120.943535999224
3035000000	-7.81563635230983	118.52870450623
3057500000	-8.02461745188521	115.426583108114
3080000000	-7.73644458408726	112.118481952414
3102500000	-7.86987300780688	106.089803480685
3125000000	-7.99720493586485	101.852893160674
3147500000	-8.31875121067094	99.3353934358226
3170000000	-8.45329674023628	94.7759392126406
3192500000	-8.69052224702371	90.0708815043816
3215000000	-8.71805155591775	86.1250575047647
3237500000	-8.89906574391716	80.9121755872943
3260000000	-9.28981870422484	75.2966113183399
3282500000	-9.70128494878671	71.8950211154642
3305000000	-9.66224159384897	67.9834942091198
3327500000	-10.3308542707572	62.5708495850163
3350000000	-10.8365346989135	55.9503571082532
3372500000	-11.4764442900215	51.1030132647635
3395000000	-12.2290213447342	48.834264620905
3417500000	-12.7476721917632	45.8974050850237
3440000000	-13.0668575222684	37.7480133685596
3462500000	-14.0491477382282	33.1335056722269
3485000000	-14.8962409057129	27.1540131652186
3507500000	-16.3209811029198	27.3756231208429
3530000000	-17.1518810571213	18.1131723565122
3552500000	-18.0177298756083	14.3541283162044
3575000000	-18.9106609509386	1.42067941009478
3597500000	-21.2821849306279	-10.4131765899645
3620000000	-25.6896797724792	-30.6411996130552
3642500000	-28.6253099247428	-52.1818061406855
3665000000	-30.8686033808564	-90.1054395024405
3687500000	-27.9072052926375	-137.84430965823
3710000000	-24.7752964366253	-168.948211812226
3732500000	-23.5504500058753	-172.896548738687
3755000000	-21.4661226482369	178.777157614814
3777500000	-19.5281793284565	172.198842512935
3800000000	-18.0032656756857	167.257202775832
3822500000	-16.4469036054609	165.204767595018
3845000000	-15.3841511218211	156.242987637546
3867500000	-14.2958603433045	152.075058921768
3890000000	-13.4426970808243	147.84129837946
3912500000	-12.7486581332417	140.901857471265
3935000000	-12.4036758503928	136.952581249689
3957500000	-11.8213411198803	130.587460311272
3980000000	-11.5579531361166	128.061166594696
4002500000	-11.422275953857	127.79533654578
4025000000	-10.6448808133172	124.715516783252
4047500000	-9.96633080066482	119.316781761477
4070000000	-9.82421238938743	114.650744027459
4092500000	-9.69890878555707	112.365788197469
4115000000	-9.44288201512991	108.264827208473
4137500000	-9.08894961835067	104.587164259307
4160000000	-8.78650051107776	102.072602207985
4182500000	-8.56031187393329	98.9008216567288
4205000000	-8.53543684015324	94.0684929732912
4227500000	-8.49095898328305	90.7037686270826
4250000000	-8.42122235670524	87.821643737296
4272500000	-8.59160037495444	84.9182660871178
4295000000	-8.38449128463436	82.7473425843105
4317500000	-8.3280163976316	79.4683121433904
4340000000	-8.1774645682488	76.2868677564281
4362500000	-8.16441608538653	74.0750101212646
4385000000	-8.04284579436563	71.2363561818274
4407500000	-8.09637619046973	67.3976879578077
4430000000	-7.99471466470497	64.5797726964538
4452500000	-7.96240420450594	62.2135784314498
4475000000	-7.94124234002806	58.2932480199836
4497500000	-8.1418197313977	53.8117284047837
4520000000	-8.24762415189329	51.6091216222825
4542500000	-8.41976076781561	49.089076310752
4565000000	-8.56302148596225	46.392896521667
4587500000	-8.60444362136604	44.3629141555993
4610000000	-8.51197017052301	41.3468086019814
4632500000	-8.68762335489332	38.7504774539694
4655000000	-8.99655337534144	35.3305090396882
4677500000	-8.93455728376907	31.8809902373153
4700000000	-9.17533708473153	29.022617048348
4722500000	-9.39359201916018	26.7381949571459
4745000000	-9.64547623593094	22.8751954811541
4767500000	-10.037320376177	18.9695545560685
4790000000	-10.3503147324374	16.9699397863911
4812500000	-10.4232063544785	14.6277958364607
4835000000	-10.9693067151325	10.3838722467464
4857500000	-11.315688539389	9.3725760205206
4880000000	-11.2816863078058	5.96049371603718
4902500000	-11.6822485887421	1.54899595713877
4925000000	-12.3005274822107	-1.08528944559332
4947500000	-12.8055533839971	-5.67846969705891
4970000000	-13.3632640073758	-8.01511152462171
4992500000	-14.1090394122624	-9.09115326472345
5015000000	-14.3916562499901	-12.5781268415724
5037500000	-15.1837084376129	-18.9670163261552
5060000000	-15.9680636364907	-22.0388202851518
5082500000	-16.9393567239836	-23.4979710389058
5105000000	-17.7342586822415	-27.7947437384484
5127500000	-18.7320911862212	-32.2728012346223
5150000000	-19.5765534892655	-35.7961072293466
5172500000	-22.2269542057937	-37.7589413603974
5195000000	-24.4044674980793	-31.0696124581126
5217500000	-25.7869172215733	-34.0868079715096
5240000000	-27.832691748774	-39.3183066176599
5262500000	-31.4051106337007	-49.5821790206093
5285000000	-40.7002589170296	-69.0894533422465
5307500000	-44.5195684011109	170.138887414887
5330000000	-32.3434238216961	140.072437853531
5352500000	-28.7707143219868	116.950499760721
5375000000	-24.7196492486284	120.106427483959
5397500000	-22.0663882197262	115.819943659501
5420000000	-20.8759234391479	105.889439931052
5442500000	-19.8896025460117	101.338535282302
5465000000	-18.3067182126916	101.031572659749
5487500000	-17.3473699164101	97.3162203551209
5510000000	-16.7011981200904	94.3015258349487
5532500000	-15.9250225044677	90.144227825314
5555000000	-15.1630384218595	89.069207731505
5577500000	-14.576030350082	85.3768297576079
5600000000	-13.9632752976318	82.6587658616507
5622500000	-13.5155913023683	78.8759877524546
5645000000	-13.0751480659055	77.0098599893297
5667500000	-12.3746829621024	74.4030956580763
5690000000	-11.9026020825591	69.9408372105203
5712500000	-11.5320476456159	67.0274091961231
5735000000	-11.1518787134657	64.6008329655522
5757500000	-10.7858936506941	62.1057313475809
5780000000	-10.7019998230026	58.1481141400551
5802500000	-10.4957382971883	55.1844269165087
5825000000	-9.98322337440694	53.2664284517293
5847500000	-9.75444330401401	49.6529913748341
5870000000	-9.63521001927785	47.5696084508781
5892500000	-9.37899903191475	44.364296055229
5915000000	-9.29090757098413	41.6897931649148
5937500000	-9.15540339390119	40.1525315653264
5960000000	-8.8571177702923	36.4879248397323
5982500000	-8.66297658213426	33.0411036451206
6005000000	-8.61006339117143	30.8246057752338
6027500000	-8.48138795909891	28.5914630182632
6050000000	-8.52399842590749	25.4608907419523
6072500000	-8.42153270713436	22.5463013020812
6095000000	-8.2936376606053	20.9376410995956
6117500000	-8.28332473126201	18.9515698887021
6140000000	-8.19753653652949	15.9304159498783
6162500000	-8.1954920495944	12.7199973605577
6185000000	-8.17064457965585	9.44530247707807
6207500000	-8.17431066541007	6.69211600449784
6230000000	-8.10789061769477	4.48946159024605
6252500000	-8.1708976040836	2.55585329504493
6275000000	-8.24217343959126	-0.623720688677478
6297500000	-8.28518749641351	-2.67718490262568
6320000000	-8.40665902635801	-6.31648430084111
6342500000	-8.59890975823413	-9.37951497136266
6365000000	-8.65589033727524	-10.9670362188402
6387500000	-8.72786194085954	-12.9984730157416
6410000000	-8.93666537625143	-15.0256920381553
6432500000	-9.10872670087161	-18.6303408356422
6455000000	-9.27118151503308	-21.6202776252465
6477500000	-9.30156575369098	-22.881096792361
6500000000	-9.62392876448434	-25.1373599294479
